Freq.	V(out)	V(vin)
1.00000000000000e+002	(-3.34070015873620e+001dB,-9.03614718018583e+001°)	(-6.02060077158675e+000dB,-8.99964766559256e-004°)
1.25892541179417e+002	(-3.14071001933981e+001dB,-9.04550626364885e+001°)	(-6.02060127357394e+000dB,-1.13296257225003e-003°)
1.58489319246111e+002	(-2.94072564688490e+001dB,-9.05728831323472e+001°)	(-6.02060206912345e+000dB,-1.42626361457055e-003°)
1.99526231496888e+002	(-2.74075041372326e+001dB,-9.07212035968267e+001°)	(-6.02060332986749e+000dB,-1.79545624660015e-003°)
2.51188643150958e+002	(-2.54078966362481e+001dB,-9.09079145286954e+001°)	(-6.02060532771837e+000dB,-2.26013949071665e-003°)
3.16227766016838e+002	(-2.34085186326363e+001dB,-9.11429427945562e+001°)	(-6.02060849336095e+000dB,-2.84493610300341e-003°)
3.98107170553497e+002	(-2.14095042480973e+001dB,-9.14387722527065e+001°)	(-6.02061350871425e+000dB,-3.58074273240140e-003°)
5.01187233627272e+002	(-1.94110658854352e+001dB,-9.18110925841711e+001°)	(-6.02062145286467e+000dB,-4.50625361314316e-003°)
6.30957344480193e+002	(-1.74135397645232e+001dB,-9.22796029982115e+001°)	(-6.02063403183061e+000dB,-5.66977913796740e-003°)
7.94328234724282e+002	(-1.54174577152648e+001dB,-9.28689979631129e+001°)	(-6.02065393890299e+000dB,-7.13133791111043e-003°)
1.00000000000000e+003	(-1.34236600199782e+001dB,-9.36101564949580e+001°)	(-6.02068541623821e+000dB,-8.96490108363505e-003°)
1.25892541179417e+003	(-1.14334719081781e+001dB,-9.45415373901235e+001°)	(-6.02073512130142e+000dB,-1.12604547778151e-002°)
1.58489319246111e+003	(-9.44897745150648e+000dB,-9.57107356772860e+001°)	(-6.02081344178092e+000dB,-1.41251174547940e-002°)
1.99526231496888e+003	(-7.47343928034700e+000dB,-9.71760536895878e+001°)	(-6.02093643714488e+000dB,-1.76817291593469e-002°)
2.51188643150958e+003	(-5.51192871542414e+000dB,-9.90077370327395e+001°)	(-6.02112857347317e+000dB,-2.20618600296948e-002°)
3.16227766016838e+003	(-3.57224034159750e+000dB,-1.01288150132151e+002°)	(-6.02142625647829e+000dB,-2.73878067782844e-002°)
3.98107170553498e+003	(-1.66614514744756e+000dB,-1.04109536719319e+002°)	(-6.02188163263466e+000dB,-3.37350074898024e-002°)
5.01187233627273e+003	(1.89062578561752e-001dB,-1.07567120761821e+002°)	(-6.02256484827825e+000dB,-4.10641991575613e-002°)
6.30957344480194e+003	(1.96903134113549e+000dB,-1.11744475305083e+002°)	(-6.02356061970737e+000dB,-4.91175464334761e-002°)
7.94328234724282e+003	(3.64164008529888e+000dB,-1.16688471365483e+002°)	(-6.02495229105937e+000dB,-5.72972159352037e-002°)
1.00000000000000e+004	(5.16854637307170e+000dB,-1.22375051911834e+002°)	(-6.02678734185505e+000dB,-6.45992966435720e-002°)
1.25892541179417e+004	(6.51055801312001e+000dB,-1.28676575783368e+002°)	(-6.02902987186918e+000dB,-6.97345883515092e-002°)
1.58489319246111e+004	(7.63686640087840e+000dB,-1.35352735924742e+002°)	(-6.03152901163091e+000dB,-7.15263945163670e-002°)
1.99526231496888e+004	(8.53481214164641e+000dB,-1.42085818784193e+002°)	(-6.03404332648159e+000dB,-6.94413590160325e-002°)
2.51188643150958e+004	(9.21448997205954e+000dB,-1.48555535529241e+002°)	(-6.03632522480587e+000dB,-6.38669202836901e-002°)
3.16227766016838e+004	(9.70497477315912e+000dB,-1.54516447916788e+002°)	(-6.03820971298860e+000dB,-5.58873207780086e-002°)
3.98107170553498e+004	(1.00448032993930e+001dB,-1.59838783947995e+002°)	(-6.03964701568669e+000dB,-4.67587680594084e-002°)
5.01187233627273e+004	(1.02724003391622e+001dB,-1.64503996586200e+002°)	(-6.04067564786518e+000dB,-3.74793310686484e-002°)
6.30957344480194e+004	(1.04201592223544e+001dB,-1.68574234715753e+002°)	(-6.04137448403896e+000dB,-2.86342328792758e-002°)
7.94328234724283e+004	(1.05124243268904e+001dB,-1.72158548442360e+002°)	(-6.04182551626472e+000dB,-2.04446031593333e-002°)
1.00000000000000e+005	(1.05658560220274e+001dB,-1.75387888412735e+002°)	(-6.04209512601118e+000dB,-1.28853207489015e-002°)
1.25892541179417e+005	(1.05906480832047e+001dB,-1.78400854120838e+002°)	(-6.04222838150187e+000dB,-5.79155642840614e-003°)
1.58489319246112e+005	(1.05916712904822e+001dB,1.78662445560563e+002°)	(-6.04224916980758e+000dB,1.06800654609890e-003°)
1.99526231496888e+005	(1.05691286205470e+001dB,1.75661903293825e+002°)	(-6.04216152984686e+000dB,7.94439899654017e-003°)
2.51188643150958e+005	(1.05185840895286e+001dB,1.72457387192540e+002°)	(-6.04195015511511e+000dB,1.50725845362332e-002°)
3.16227766016838e+005	(1.04303604824327e+001dB,1.68909995568599e+002°)	(-6.04157991591629e+000dB,2.26301550316646e-002°)
3.98107170553498e+005	(1.02884281430802e+001dB,1.64887643569001e+002°)	(-6.04099599932395e+000dB,3.06753941139379e-002°)
5.01187233627273e+005	(1.00691656984443e+001dB,1.60278451923591e+002°)	(-6.04012852797757e+000dB,3.90567211098293e-002°)
6.30957344480194e+005	(9.74086444663606e+000dB,1.55014759783004e+002°)	(-6.03890785674878e+000dB,4.73090367444949e-002°)
7.94328234724283e+005	(9.26546196609509e+000dB,1.49106438926867e+002°)	(-6.03729583802356e+000dB,5.46017272106281e-002°)
1.00000000000000e+006	(8.60408101454513e+000dB,1.42672528220307e+002°)	(-6.03532780857254e+000dB,5.98538299650588e-002°)
