time	V(a)	V(b)	V(out)	V(n002)
0.000000000000000e+000	7.996380e+000	3.992761e+000	2.906920e+000	0.000000e+000
4.618749988886912e-007	8.141456e+000	4.064952e+000	2.909766e+000	1.453284e-001
9.237499977773823e-007	8.285904e+000	4.136830e+000	2.912482e+000	2.902495e-001
1.385624996666073e-006	8.429725e+000	4.208396e+000	2.915068e+000	4.347632e-001
1.847499995554765e-006	8.572918e+000	4.279648e+000	2.917525e+000	5.788696e-001
2.309374994443456e-006	8.715484e+000	4.350588e+000	2.919853e+000	7.225686e-001
2.771249993332147e-006	8.857423e+000	4.421215e+000	2.922051e+000	8.658603e-001
3.233124992220837e-006	8.998734e+000	4.491529e+000	2.924119e+000	1.008745e+000
5.186249992220837e-006	9.581970e+000	4.781736e+000	2.931956e+000	1.600626e+000
7.139374992220837e-006	1.013760e+001	5.058199e+000	2.938397e+000	2.168433e+000
8.115937492220837e-006	1.040243e+001	5.189972e+000	2.941188e+000	2.440622e+000
9.092499992220837e-006	1.065728e+001	5.316774e+000	2.943729e+000	2.703624e+000
1.006906249222084e-005	1.090118e+001	5.438129e+000	2.946041e+000	2.956451e+000
1.104562499222084e-005	1.113322e+001	5.553584e+000	2.948141e+000	3.198151e+000
1.202218749222084e-005	1.135253e+001	5.662704e+000	2.950045e+000	3.427813e+000
1.299874999222084e-005	1.155829e+001	5.765079e+000	2.951765e+000	3.644574e+000
1.397531249222084e-005	1.174973e+001	5.860328e+000	2.953312e+000	3.847618e+000
1.495187499222084e-005	1.192612e+001	5.948092e+000	2.954694e+000	4.036180e+000
1.592843749222084e-005	1.208681e+001	6.028043e+000	2.955919e+000	4.209550e+000
1.690499999222084e-005	1.223119e+001	6.099882e+000	2.956994e+000	4.367077e+000
1.788156249222085e-005	1.235873e+001	6.163338e+000	2.957924e+000	4.508168e+000
1.885812499222085e-005	1.246895e+001	6.218176e+000	2.958713e+000	4.632290e+000
1.983468749222085e-005	1.256143e+001	6.264189e+000	2.959365e+000	4.738978e+000
2.081124999222085e-005	1.263583e+001	6.301207e+000	2.959883e+000	4.827829e+000
2.178781249222085e-005	1.269187e+001	6.329091e+000	2.960270e+000	4.898509e+000
2.276437499222085e-005	1.272935e+001	6.347738e+000	2.960527e+000	4.950753e+000
2.374093749222085e-005	1.274812e+001	6.357079e+000	2.960655e+000	4.984363e+000
2.471749999222085e-005	1.274812e+001	6.357080e+000	2.960655e+000	4.999212e+000
2.569406249222085e-005	1.272936e+001	6.347743e+000	2.960527e+000	4.995246e+000
2.667062499222085e-005	1.269189e+001	6.329103e+000	2.960270e+000	4.972479e+000
2.764718749222085e-005	1.263588e+001	6.301234e+000	2.959884e+000	4.930997e+000
2.862374999222086e-005	1.256153e+001	6.264240e+000	2.959366e+000	4.870955e+000
2.960031249222086e-005	1.246912e+001	6.218263e+000	2.958714e+000	4.792581e+000
3.057687499222086e-005	1.235901e+001	6.163476e+000	2.957926e+000	4.696168e+000
3.155343749222086e-005	1.223161e+001	6.100088e+000	2.956997e+000	4.582080e+000
3.252999999222086e-005	1.208740e+001	6.028338e+000	2.955924e+000	4.450746e+000
3.350656249222086e-005	1.192693e+001	5.948498e+000	2.954700e+000	4.302660e+000
3.448312499222086e-005	1.175081e+001	5.860868e+000	2.953321e+000	4.138381e+000
3.545968749222086e-005	1.155970e+001	5.765782e+000	2.951777e+000	3.958524e+000
3.643624999222086e-005	1.135433e+001	5.663597e+000	2.950060e+000	3.763770e+000
3.741281249222086e-005	1.113546e+001	5.554699e+000	2.948161e+000	3.554849e+000
3.838937499222086e-005	1.090394e+001	5.439500e+000	2.946066e+000	3.332549e+000
3.936593749222086e-005	1.066062e+001	5.318435e+000	2.943761e+000	3.097705e+000
4.034249999222087e-005	1.040643e+001	5.191959e+000	2.941229e+000	2.851203e+000
4.229562499222087e-005	9.869304e+000	4.924706e+000	2.935394e+000	2.326972e+000
4.424874999222087e-005	9.300671e+000	4.641768e+000	2.928334e+000	1.767742e+000
4.620187499222087e-005	8.709099e+000	4.347411e+000	2.919698e+000	1.181923e+000
4.717843749222087e-005	8.407489e+000	4.197331e+000	2.914621e+000	8.817840e-001
4.815499999222087e-005	8.103508e+000	4.046068e+000	2.908906e+000	5.783265e-001
5.010812499222087e-005	7.493026e+000	3.742276e+000	2.894904e+000	-3.396821e-002
5.206124999222088e-005	6.886857e+000	3.440603e+000	2.875470e+000	-6.457520e-001
5.303781249222088e-005	6.588250e+000	3.291976e+000	2.862172e+000	-9.485726e-001
5.401437499222088e-005	6.294136e+000	3.145562e+000	2.844434e+000	-1.247823e+000
5.499093749222088e-005	6.005623e+000	3.001893e+000	2.818280e+000	-1.542377e+000
5.596749999222088e-005	5.723799e+000	2.861462e+000	2.773891e+000	-1.831126e+000
5.694406249222088e-005	5.449728e+000	2.724726e+000	2.697145e+000	-2.112983e+000
5.792062499222088e-005	5.184444e+000	2.592200e+000	2.587738e+000	-2.386887e+000
5.889718749222088e-005	4.928946e+000	2.464472e+000	2.464294e+000	-2.651807e+000
5.987374999222088e-005	4.684199e+000	2.342101e+000	2.342268e+000	-2.906746e+000
6.182687499222088e-005	4.230609e+000	2.115306e+000	2.115499e+000	-3.382886e+000
6.377999999222088e-005	3.830517e+000	1.915259e+000	1.915453e+000	-3.808144e+000
6.573312499222088e-005	3.489959e+000	1.744981e+000	1.745174e+000	-4.176124e+000
6.670968749222088e-005	3.343650e+000	1.671826e+000	1.672019e+000	-4.336869e+000
6.768624999222088e-005	3.214078e+000	1.607040e+000	1.607233e+000	-4.481291e+000
6.866281249222088e-005	3.101734e+000	1.550868e+000	1.551061e+000	-4.608846e+000
6.963937499222088e-005	3.007042e+000	1.503522e+000	1.503716e+000	-4.719055e+000
7.061593749222089e-005	2.930363e+000	1.465183e+000	1.465376e+000	-4.811502e+000
7.159249999222089e-005	2.871987e+000	1.435994e+000	1.436188e+000	-4.885840e+000
7.256906249222089e-005	2.832135e+000	1.416068e+000	1.416262e+000	-4.941789e+000
7.354562499222089e-005	2.810961e+000	1.405481e+000	1.405675e+000	-4.979138e+000
7.452218749222089e-005	2.808546e+000	1.404274e+000	1.404467e+000	-4.997747e+000
7.549874999222089e-005	2.824902e+000	1.412452e+000	1.412645e+000	-4.997545e+000
7.647531249222089e-005	2.859970e+000	1.429986e+000	1.430179e+000	-4.978534e+000
7.745187499222089e-005	2.913620e+000	1.456811e+000	1.457005e+000	-4.940784e+000
7.842843749222089e-005	2.985653e+000	1.492828e+000	1.493021e+000	-4.884439e+000
7.940499999222089e-005	3.075800e+000	1.537901e+000	1.538094e+000	-4.809710e+000
8.038156249222089e-005	3.183724e+000	1.591863e+000	1.592056e+000	-4.716877e+000
8.135812499222090e-005	3.309021e+000	1.654511e+000	1.654705e+000	-4.606292e+000
8.331124999222090e-005	3.609793e+000	1.804898e+000	1.805091e+000	-4.333591e+000
8.526437499222090e-005	3.973612e+000	1.986807e+000	1.987000e+000	-3.995710e+000
8.721749999222090e-005	4.395024e+000	2.197513e+000	2.197705e+000	-3.597729e+000
8.917062499222090e-005	4.867710e+000	2.433855e+000	2.433856e+000	-3.145635e+000
9.014718749222090e-005	5.121091e+000	2.560533e+000	2.558078e+000	-2.901392e+000
9.112374999222090e-005	5.384576e+000	2.692192e+000	2.673029e+000	-2.646228e+000
9.210031249222090e-005	5.657177e+000	2.828241e+000	2.758727e+000	-2.381105e+000
9.307687499222091e-005	5.937867e+000	2.968143e+000	2.809895e+000	-2.107019e+000
9.405343749222091e-005	6.225594e+000	3.111436e+000	2.839203e+000	-1.825003e+000
9.502999999222091e-005	6.519276e+000	3.257643e+000	2.858507e+000	-1.536119e+000
9.600656249222091e-005	6.817810e+000	3.406238e+000	2.872765e+000	-1.241452e+000
9.795968749222091e-005	7.424934e+000	3.708390e+000	2.893096e+000	-6.392288e-001
9.991281249222091e-005	8.037851e+000	4.013397e+000	2.907583e+000	-2.739063e-002
1.008893749922209e-004	8.343607e+000	4.165543e+000	2.913477e+000	2.792600e-001
1.028424999922209e-004	8.947972e+000	4.466271e+000	2.923373e+000	8.882579e-001
1.047956249922209e-004	9.535266e+000	4.758498e+000	2.931373e+000	1.483895e+000
1.067487499922209e-004	1.009667e+001	5.037837e+000	2.937951e+000	2.057214e+000
1.077253124922209e-004	1.036502e+001	5.171355e+000	2.940803e+000	2.332792e+000
1.087018749922209e-004	1.062377e+001	5.300099e+000	2.943402e+000	2.599590e+000
1.096784374922209e-004	1.087195e+001	5.423585e+000	2.945769e+000	2.856604e+000
1.106549999922209e-004	1.110863e+001	5.541349e+000	2.947922e+000	3.102866e+000
1.116315624922209e-004	1.133293e+001	5.652949e+000	2.949878e+000	3.337449e+000
1.126081249922209e-004	1.154400e+001	5.757967e+000	2.951647e+000	3.559471e+000
1.135846874922209e-004	1.174104e+001	5.856009e+000	2.953242e+000	3.768097e+000
1.145612499922209e-004	1.192333e+001	5.946705e+000	2.954672e+000	3.962539e+000
1.155378124922209e-004	1.209017e+001	6.029716e+000	2.955944e+000	4.142068e+000
1.165143749922209e-004	1.224094e+001	6.104732e+000	2.957065e+000	4.306007e+000
1.174909374922209e-004	1.237507e+001	6.171470e+000	2.958041e+000	4.453739e+000
1.184674999922209e-004	1.249207e+001	6.229680e+000	2.958876e+000	4.584709e+000
1.194440624922209e-004	1.259148e+001	6.279144e+000	2.959575e+000	4.698422e+000
1.204206249922209e-004	1.267295e+001	6.319678e+000	2.960140e+000	4.794452e+000
1.213971874922209e-004	1.273617e+001	6.351130e+000	2.960573e+000	4.872436e+000
1.223737499922209e-004	1.278089e+001	6.373382e+000	2.960877e+000	4.932082e+000
1.233503124922209e-004	1.280696e+001	6.386352e+000	2.961054e+000	4.973164e+000
1.243268749922209e-004	1.281427e+001	6.389991e+000	2.961103e+000	4.995529e+000
1.253034374922209e-004	1.280281e+001	6.384287e+000	2.961026e+000	4.999091e+000
1.262799999922209e-004	1.277261e+001	6.369263e+000	2.960821e+000	4.983839e+000
1.272565624922209e-004	1.272380e+001	6.344976e+000	2.960489e+000	4.949827e+000
1.282331249922209e-004	1.265655e+001	6.311520e+000	2.960026e+000	4.897186e+000
1.292096874922209e-004	1.257113e+001	6.269019e+000	2.959433e+000	4.826113e+000
1.301862499922209e-004	1.246786e+001	6.217635e+000	2.958704e+000	4.736876e+000
1.311628124922209e-004	1.234713e+001	6.157564e+000	2.957839e+000	4.629810e+000
1.321393749922209e-004	1.220938e+001	6.089031e+000	2.956833e+000	4.505319e+000
1.331159374922209e-004	1.205516e+001	6.012296e+000	2.955680e+000	4.363871e+000
1.340924999922209e-004	1.188503e+001	5.927648e+000	2.954375e+000	4.205997e+000
1.350690624922209e-004	1.169964e+001	5.835406e+000	2.952911e+000	4.032294e+000
1.360456249922209e-004	1.149969e+001	5.735920e+000	2.951281e+000	3.843414e+000
1.370221874922209e-004	1.128593e+001	5.629564e+000	2.949474e+000	3.640068e+000
1.379987499922209e-004	1.105917e+001	5.516740e+000	2.947480e+000	3.423022e+000
1.389753124922209e-004	1.082027e+001	5.397872e+000	2.945285e+000	3.193092e+000
1.399518749922209e-004	1.057013e+001	5.273410e+000	2.942874e+000	2.951144e+000
1.409284374922209e-004	1.030968e+001	5.143823e+000	2.940228e+000	2.698089e+000
1.428815624922209e-004	9.761854e+000	4.871242e+000	2.934136e+000	2.162504e+000
1.448346874922209e-004	9.185046e+000	4.584236e+000	2.926763e+000	1.594393e+000
1.467878124922209e-004	8.587948e+000	4.287127e+000	2.917722e+000	1.002301e+000
1.477643749922209e-004	8.284593e+000	4.136178e+000	2.912390e+000	7.000349e-001
1.487409374922209e-004	7.979555e+000	3.984387e+000	2.906368e+000	3.951337e-001
1.506940624922209e-004	7.369033e+000	3.680571e+000	2.891500e+000	-2.179771e-001
1.516706249922209e-004	7.065850e+000	3.529687e+000	2.882036e+000	-5.238791e-001
1.526471874922209e-004	6.765579e+000	3.380241e+000	2.870483e+000	-8.278093e-001
1.536237499922210e-004	6.469352e+000	3.232791e+000	2.855748e+000	-1.128624e+000
1.546003124922210e-004	6.178286e+000	3.087881e+000	2.835443e+000	-1.425190e+000
1.555768749922210e-004	5.893476e+000	2.946028e+000	2.803877e+000	-1.716393e+000
1.565534374922210e-004	5.615999e+000	2.807703e+000	2.748479e+000	-2.001135e+000
1.575299999922210e-004	5.346898e+000	2.673374e+000	2.658322e+000	-2.278346e+000
1.585065624922210e-004	5.087189e+000	2.543586e+000	2.541903e+000	-2.546981e+000
1.594831249922210e-004	4.837851e+000	2.418925e+000	2.418983e+000	-2.806031e+000
1.614362499922210e-004	4.374003e+000	2.187003e+000	2.187195e+000	-3.291510e+000
1.633893749922210e-004	3.962348e+000	1.981175e+000	1.981368e+000	-3.727482e+000
1.653424999922210e-004	3.609092e+000	1.804547e+000	1.804740e+000	-4.107389e+000
1.672956249922210e-004	3.319561e+000	1.659782e+000	1.659975e+000	-4.425517e+000
1.682721874922210e-004	3.200098e+000	1.600050e+000	1.600243e+000	-4.559880e+000
1.692487499922210e-004	3.098126e+000	1.549064e+000	1.549257e+000	-4.677081e+000
1.702253124922210e-004	3.014031e+000	1.507017e+000	1.507210e+000	-4.776679e+000
1.712018749922210e-004	2.948131e+000	1.474067e+000	1.474260e+000	-4.858298e+000
1.721784374922210e-004	2.900676e+000	1.450339e+000	1.450532e+000	-4.921631e+000
1.731549999922210e-004	2.871847e+000	1.435924e+000	1.436118e+000	-4.966441e+000
1.741315624922210e-004	2.861753e+000	1.430877e+000	1.431071e+000	-4.992558e+000
1.751081249922210e-004	2.870434e+000	1.435218e+000	1.435411e+000	-4.999885e+000
1.760846874922210e-004	2.897860e+000	1.448931e+000	1.449124e+000	-4.988392e+000
1.770612499922210e-004	2.943929e+000	1.471965e+000	1.472159e+000	-4.958125e+000
1.780378124922210e-004	3.008469e+000	1.504236e+000	1.504429e+000	-4.909196e+000
1.790143749922210e-004	3.091239e+000	1.545621e+000	1.545814e+000	-4.841791e+000
1.799909374922210e-004	3.191930e+000	1.595966e+000	1.596159e+000	-4.756162e+000
1.809674999922210e-004	3.310164e+000	1.655083e+000	1.655276e+000	-4.652631e+000
1.829206249922210e-004	3.597424e+000	1.798713e+000	1.798906e+000	-4.393492e+000
1.848737499922210e-004	3.948711e+000	1.974357e+000	1.974550e+000	-4.068271e+000
1.868268749922210e-004	4.358757e+000	2.179379e+000	2.179572e+000	-3.681859e+000
1.887799999922210e-004	4.821406e+000	2.410703e+000	2.410784e+000	-3.240068e+000
1.897565624922210e-004	5.070315e+000	2.535151e+000	2.533751e+000	-3.000452e+000
1.907331249922210e-004	5.329714e+000	2.664790e+000	2.651300e+000	-2.749543e+000
1.917096874922210e-004	5.598629e+000	2.799038e+000	2.743778e+000	-2.488286e+000
1.926862499922210e-004	5.876048e+000	2.937344e+000	2.801265e+000	-2.217664e+000
1.936628124922210e-004	6.160929e+000	3.079237e+000	2.833883e+000	-1.938694e+000
1.946393749922210e-004	6.452200e+000	3.224252e+000	2.854730e+000	-1.652428e+000
1.956159374922210e-004	6.748768e+000	3.371874e+000	2.869848e+000	-1.359942e+000
1.965924999922210e-004	7.049517e+000	3.521559e+000	2.881574e+000	-1.062338e+000
1.985456249922210e-004	7.659027e+000	3.824885e+000	2.899137e+000	-4.562697e-001
1.995221874922210e-004	7.965497e+000	3.977392e+000	2.906078e+000	-1.500867e-001
2.004987499922210e-004	8.271575e+000	4.129700e+000	2.912151e+000	1.566613e-001
2.024518749922210e-004	8.877960e+000	4.431434e+000	2.922324e+000	7.672360e-001
2.044049999922210e-004	9.469074e+000	4.725562e+000	2.930534e+000	1.366271e+000
2.063581249922210e-004	1.003604e+001	5.007668e+000	2.937281e+000	1.944756e+000
2.073346874922210e-004	1.030779e+001	5.142879e+000	2.940208e+000	2.223557e+000
2.083112499922210e-004	1.057034e+001	5.273516e+000	2.942876e+000	2.493989e+000
2.092878124922210e-004	1.082271e+001	5.399086e+000	2.945308e+000	2.755035e+000
2.102643749922210e-004	1.106395e+001	5.519117e+000	2.947523e+000	3.005711e+000
2.112409374922210e-004	1.129316e+001	5.633159e+000	2.949536e+000	3.245075e+000
2.122174999922210e-004	1.150946e+001	5.740784e+000	2.951361e+000	3.472224e+000
2.131940624922210e-004	1.171206e+001	5.841586e+000	2.953010e+000	3.686306e+000
2.141706249922210e-004	1.190018e+001	5.935188e+000	2.954492e+000	3.886512e+000
2.151471874922210e-004	1.207313e+001	6.021238e+000	2.955815e+000	4.072091e+000
2.161237499922210e-004	1.223025e+001	6.099414e+000	2.956986e+000	4.242343e+000
2.171003124922210e-004	1.237095e+001	6.169420e+000	2.958011e+000	4.396628e+000
2.180768749922210e-004	1.249471e+001	6.230996e+000	2.958894e+000	4.534366e+000
2.190534374922210e-004	1.260106e+001	6.283909e+000	2.959641e+000	4.655036e+000
2.200299999922210e-004	1.268960e+001	6.327962e+000	2.960254e+000	4.758186e+000
2.210065624922210e-004	1.276000e+001	6.362990e+000	2.960735e+000	4.843428e+000
2.219831249922210e-004	1.281200e+001	6.388861e+000	2.961088e+000	4.910440e+000
2.229596874922210e-004	1.284540e+001	6.405478e+000	2.961313e+000	4.958970e+000
2.239362499922210e-004	1.286008e+001	6.412781e+000	2.961411e+000	4.988836e+000
2.249128124922210e-004	1.285598e+001	6.410742e+000	2.961384e+000	4.999925e+000
2.258893749922210e-004	1.283312e+001	6.399370e+000	2.961230e+000	4.992195e+000
2.268659374922210e-004	1.279159e+001	6.378707e+000	2.960950e+000	4.965676e+000
2.278424999922210e-004	1.273155e+001	6.348834e+000	2.960541e+000	4.920467e+000
2.288190624922210e-004	1.265322e+001	6.309862e+000	2.960003e+000	4.856739e+000
2.297956249922210e-004	1.255690e+001	6.261939e+000	2.959332e+000	4.774731e+000
2.307721874922210e-004	1.244296e+001	6.205246e+000	2.958527e+000	4.674752e+000
2.317487499922210e-004	1.231182e+001	6.139998e+000	2.957583e+000	4.557178e+000
2.327253124922210e-004	1.216398e+001	6.066441e+000	2.956496e+000	4.422452e+000
2.337018749922210e-004	1.200000e+001	5.984851e+000	2.955260e+000	4.271081e+000
2.346784374922210e-004	1.182049e+001	5.895537e+000	2.953870e+000	4.103634e+000
2.356549999922210e-004	1.162614e+001	5.798836e+000	2.952318e+000	3.920743e+000
2.366315624922210e-004	1.141767e+001	5.695112e+000	2.950595e+000	3.723094e+000
2.376081249922210e-004	1.119587e+001	5.584756e+000	2.948692e+000	3.511433e+000
2.385846874922210e-004	1.096158e+001	5.468184e+000	2.946595e+000	3.286556e+000
2.395612499922210e-004	1.071569e+001	5.345836e+000	2.944292e+000	3.049308e+000
2.405378124922210e-004	1.045911e+001	5.218172e+000	2.941764e+000	2.800584e+000
2.424909374922210e-004	9.917810e+000	4.948841e+000	2.935950e+000	2.272489e+000
2.444440624922210e-004	9.345843e+000	4.664245e+000	2.928933e+000	1.710213e+000
2.463971874922210e-004	8.751820e+000	4.368669e+000	2.920375e+000	1.122215e+000
2.483503124922210e-004	8.144688e+000	4.066559e+000	2.909719e+000	5.173371e-001
2.503034374922210e-004	7.533587e+000	3.762461e+000	2.895968e+000	-9.532192e-002
2.522565624922210e-004	6.927721e+000	3.460941e+000	2.877049e+000	-7.065472e-001
2.532331249922210e-004	6.629609e+000	3.312563e+000	2.864241e+000	-1.008745e+000
2.542096874922210e-004	6.336213e+000	3.166511e+000	2.847382e+000	-1.307145e+000
2.551862499922210e-004	6.048639e+000	3.023319e+000	2.823077e+000	-1.600626e+000
2.561628124922210e-004	5.767971e+000	2.883483e+000	2.782935e+000	-1.888083e+000
2.571393749922210e-004	5.495265e+000	2.747460e+000	2.712879e+000	-2.168433e+000
2.581159374922210e-004	5.231550e+000	2.615742e+000	2.609232e+000	-2.440622e+000
2.590924999922210e-004	4.977818e+000	2.488907e+000	2.488497e+000	-2.703624e+000
2.600690624922210e-004	4.735027e+000	2.367514e+000	2.367664e+000	-2.956451e+000
2.620221874922210e-004	4.285880e+000	2.142941e+000	2.143134e+000	-3.427813e+000
2.639753124922210e-004	3.890876e+000	1.945439e+000	1.945632e+000	-3.847618e+000
2.659284374922210e-004	3.555965e+000	1.777984e+000	1.778177e+000	-4.209550e+000
2.678815624922210e-004	3.286198e+000	1.643100e+000	1.643293e+000	-4.508168e+000
2.688581249922210e-004	3.177053e+000	1.588528e+000	1.588721e+000	-4.632290e+000
2.698346874922210e-004	3.085640e+000	1.542821e+000	1.543014e+000	-4.738978e+000
2.708112499922210e-004	3.012304e+000	1.506153e+000	1.506346e+000	-4.827829e+000
2.717878124922210e-004	2.957321e+000	1.478661e+000	1.478855e+000	-4.898509e+000
2.727643749922210e-004	2.920900e+000	1.460451e+000	1.460644e+000	-4.950753e+000
2.737409374922210e-004	2.903179e+000	1.451590e+000	1.451784e+000	-4.984363e+000
2.747174999922210e-004	2.904227e+000	1.452114e+000	1.452307e+000	-4.999212e+000
2.756940624922210e-004	2.924040e+000	1.462021e+000	1.462214e+000	-4.995246e+000
2.766706249922210e-004	2.962546e+000	1.481274e+000	1.481467e+000	-4.972479e+000
2.776471874922210e-004	3.019600e+000	1.509801e+000	1.509994e+000	-4.930997e+000
2.786237499922210e-004	3.094990e+000	1.547496e+000	1.547689e+000	-4.870955e+000
2.796003124922210e-004	3.188433e+000	1.594217e+000	1.594411e+000	-4.792581e+000
2.805768749922210e-004	3.299578e+000	1.649790e+000	1.649983e+000	-4.696168e+000
2.825299999922210e-004	3.573242e+000	1.786622e+000	1.786815e+000	-4.450746e+000
