time	V(a)	V(b)	V(out)
0.000000000000000e+000	7.996720e+000	3.993439e+000	3.009321e+000
4.618774402949263e-007	8.141796e+000	4.065616e+000	3.009321e+000
9.237548805898526e-007	8.286245e+000	4.137481e+000	3.009321e+000
1.385632320884779e-006	8.430066e+000	4.209034e+000	3.009321e+000
1.847509761179705e-006	8.573260e+000	4.280275e+000	3.009321e+000
2.309387201474631e-006	8.715826e+000	4.351204e+000	3.009321e+000
2.771264641769558e-006	8.857765e+000	4.421820e+000	3.009321e+000
3.233142082064483e-006	8.999077e+000	4.492125e+000	3.009321e+000
5.186267082064483e-006	9.582314e+000	4.782292e+000	3.009321e+000
7.139392082064483e-006	1.013794e+001	5.058722e+000	3.009321e+000
8.115954582064483e-006	1.040277e+001	5.190481e+000	3.009321e+000
9.092517082064484e-006	1.065762e+001	5.317270e+000	3.009321e+000
1.006907958206448e-005	1.090152e+001	5.438614e+000	3.009321e+000
1.104564208206449e-005	1.113356e+001	5.554057e+000	3.009321e+000
1.202220458206449e-005	1.135287e+001	5.663167e+000	3.009321e+000
1.299876708206449e-005	1.155863e+001	5.765534e+000	3.009321e+000
1.397532958206449e-005	1.175006e+001	5.860775e+000	3.009321e+000
1.495189208206449e-005	1.192646e+001	5.948532e+000	3.009321e+000
1.592845458206449e-005	1.208714e+001	6.028477e+000	3.009321e+000
1.690501708206449e-005	1.223153e+001	6.100309e+000	3.009321e+000
1.788157958206449e-005	1.235907e+001	6.163760e+000	3.009321e+000
1.885814208206449e-005	1.246928e+001	6.218594e+000	3.009321e+000
1.983470458206449e-005	1.256176e+001	6.264604e+000	3.009321e+000
2.081126708206449e-005	1.263616e+001	6.301618e+000	3.009321e+000
2.178782958206450e-005	1.269220e+001	6.329500e+000	3.009321e+000
2.276439208206450e-005	1.272968e+001	6.348145e+000	3.009321e+000
2.374095458206450e-005	1.274845e+001	6.357485e+000	3.009321e+000
2.471751708206450e-005	1.274845e+001	6.357486e+000	3.009321e+000
2.569407958206450e-005	1.272969e+001	6.348149e+000	3.009321e+000
2.667064208206450e-005	1.269222e+001	6.329510e+000	3.009321e+000
2.764720458206450e-005	1.263621e+001	6.301642e+000	3.009321e+000
2.862376708206450e-005	1.256185e+001	6.264651e+000	3.009321e+000
2.960032958206450e-005	1.246945e+001	6.218677e+000	3.009321e+000
3.057689208206450e-005	1.235933e+001	6.163893e+000	3.009321e+000
3.155345458206450e-005	1.223193e+001	6.100510e+000	3.009321e+000
3.253001708206450e-005	1.208772e+001	6.028765e+000	3.009321e+000
3.350657958206451e-005	1.192726e+001	5.948930e+000	3.009321e+000
3.448314208206451e-005	1.175113e+001	5.861307e+000	3.009321e+000
3.545970458206451e-005	1.156003e+001	5.766228e+000	3.009321e+000
3.643626708206451e-005	1.135465e+001	5.664051e+000	3.009321e+000
3.741282958206451e-005	1.113578e+001	5.555162e+000	3.009321e+000
3.838939208206451e-005	1.090425e+001	5.439974e+000	3.009321e+000
3.936595458206451e-005	1.066093e+001	5.318919e+000	3.009321e+000
4.034251708206451e-005	1.040674e+001	5.192456e+000	3.009321e+000
4.229564208206451e-005	9.869620e+000	4.925231e+000	3.009321e+000
4.424876708206452e-005	9.300987e+000	4.642328e+000	3.009321e+000
4.620189208206452e-005	8.709415e+000	4.348014e+000	3.009321e+000
4.717845458206452e-005	8.407804e+000	4.197959e+000	3.009321e+000
4.815501708206452e-005	8.103824e+000	4.046725e+000	3.009321e+000
5.010814208206452e-005	7.493342e+000	3.743003e+000	3.009321e+000
5.206126708206452e-005	6.887173e+000	3.441426e+000	3.009321e+000
5.303782958206452e-005	6.588567e+000	3.292866e+000	3.009321e+000
5.401439208206452e-005	6.294454e+000	3.146532e+000	3.007524e+000
5.499095458206452e-005	6.005941e+000	3.002800e+000	2.968669e+000
5.596751708206453e-005	5.724118e+000	2.862059e+000	2.862059e+000
5.792064208206453e-005	5.184762e+000	2.592381e+000	2.592381e+000
5.987376708206453e-005	4.684516e+000	2.342258e+000	2.342258e+000
6.182689208206452e-005	4.230924e+000	2.115462e+000	2.115462e+000
6.378001708206453e-005	3.830830e+000	1.915415e+000	1.915415e+000
6.573314208206453e-005	3.490271e+000	1.745135e+000	1.745135e+000
6.670970458206453e-005	3.343961e+000	1.671980e+000	1.671980e+000
6.768626708206453e-005	3.214388e+000	1.607194e+000	1.607194e+000
6.866282958206453e-005	3.102043e+000	1.551022e+000	1.551022e+000
6.963939208206453e-005	3.007351e+000	1.503676e+000	1.503676e+000
7.061595458206453e-005	2.930671e+000	1.465336e+000	1.465336e+000
7.159251708206453e-005	2.872294e+000	1.436147e+000	1.436147e+000
7.256907958206453e-005	2.832442e+000	1.416221e+000	1.416221e+000
7.354564208206453e-005	2.811267e+000	1.405634e+000	1.405634e+000
7.452220458206454e-005	2.808852e+000	1.404426e+000	1.404426e+000
7.549876708206454e-005	2.825207e+000	1.412604e+000	1.412604e+000
7.647532958206454e-005	2.860275e+000	1.430137e+000	1.430138e+000
7.745189208206454e-005	2.913924e+000	1.456962e+000	1.456962e+000
7.842845458206454e-005	2.985957e+000	1.492978e+000	1.492978e+000
7.940501708206454e-005	3.076103e+000	1.538051e+000	1.538051e+000
8.038157958206454e-005	3.184026e+000	1.592013e+000	1.592013e+000
8.135814208206454e-005	3.309322e+000	1.654661e+000	1.654661e+000
8.331126708206454e-005	3.610093e+000	1.805047e+000	1.805047e+000
8.526439208206454e-005	3.973911e+000	1.986956e+000	1.986956e+000
8.721751708206455e-005	4.395322e+000	2.197661e+000	2.197661e+000
8.917064208206455e-005	4.868006e+000	2.434003e+000	2.434003e+000
9.112376708206455e-005	5.384871e+000	2.692436e+000	2.692436e+000
9.210032958206455e-005	5.657471e+000	2.828736e+000	2.828735e+000
9.307689208206455e-005	5.938162e+000	2.968953e+000	2.943361e+000
9.405345458206455e-005	6.225890e+000	3.112378e+000	2.999041e+000
9.503001708206455e-005	6.519572e+000	3.258540e+000	3.009321e+000
9.698314208206456e-005	7.120372e+000	3.557445e+000	3.009321e+000
9.893626708206456e-005	7.731541e+000	3.861510e+000	3.009321e+000
9.991282958206456e-005	8.038149e+000	4.014051e+000	3.009321e+000
1.008893920820646e-004	8.343904e+000	4.166168e+000	3.009321e+000
1.028425170820646e-004	8.948270e+000	4.466847e+000	3.009321e+000
1.047956420820646e-004	9.535564e+000	4.759034e+000	3.009321e+000
1.067487670820646e-004	1.009697e+001	5.038340e+000	3.009321e+000
1.077253295820646e-004	1.036531e+001	5.171844e+000	3.009321e+000
1.087018920820646e-004	1.062406e+001	5.300575e+000	3.009321e+000
1.096784545820646e-004	1.087224e+001	5.424048e+000	3.009321e+000
1.106550170820646e-004	1.110893e+001	5.541801e+000	3.009321e+000
1.116315795820646e-004	1.133322e+001	5.653392e+000	3.009321e+000
1.126081420820646e-004	1.154429e+001	5.758400e+000	3.009321e+000
1.135847045820646e-004	1.174134e+001	5.856433e+000	3.009321e+000
1.145612670820646e-004	1.192362e+001	5.947123e+000	3.009321e+000
1.155378295820646e-004	1.209046e+001	6.030128e+000	3.009321e+000
1.165143920820646e-004	1.224123e+001	6.105137e+000	3.009321e+000
1.174909545820646e-004	1.237536e+001	6.171869e+000	3.009321e+000
1.184675170820646e-004	1.249236e+001	6.230075e+000	3.009321e+000
1.194440795820646e-004	1.259177e+001	6.279536e+000	3.009321e+000
1.204206420820646e-004	1.267324e+001	6.320067e+000	3.009321e+000
1.213972045820646e-004	1.273645e+001	6.351516e+000	3.009321e+000
1.223737670820646e-004	1.278118e+001	6.373766e+000	3.009321e+000
1.233503295820646e-004	1.280724e+001	6.386734e+000	3.009321e+000
1.243268920820646e-004	1.281456e+001	6.390373e+000	3.009321e+000
1.253034545820646e-004	1.280309e+001	6.384670e+000	3.009321e+000
1.262800170820646e-004	1.277290e+001	6.369647e+000	3.009321e+000
1.272565795820646e-004	1.272408e+001	6.345361e+000	3.009321e+000
1.282331420820646e-004	1.265684e+001	6.311906e+000	3.009321e+000
1.292097045820646e-004	1.257142e+001	6.269408e+000	3.009321e+000
1.301862670820646e-004	1.246814e+001	6.218028e+000	3.009321e+000
1.311628295820646e-004	1.234741e+001	6.157960e+000	3.009321e+000
1.321393920820646e-004	1.220966e+001	6.089432e+000	3.009321e+000
1.331159545820646e-004	1.205544e+001	6.012702e+000	3.009321e+000
1.340925170820646e-004	1.188531e+001	5.928060e+000	3.009321e+000
1.350690795820646e-004	1.169992e+001	5.835826e+000	3.009321e+000
1.360456420820646e-004	1.149997e+001	5.736348e+000	3.009321e+000
1.370222045820646e-004	1.128621e+001	5.630001e+000	3.009321e+000
1.379987670820646e-004	1.105945e+001	5.517186e+000	3.009321e+000
1.389753295820646e-004	1.082055e+001	5.398329e+000	3.009321e+000
1.399518920820646e-004	1.057040e+001	5.273879e+000	3.009321e+000
1.409284545820646e-004	1.030996e+001	5.144304e+000	3.009321e+000
1.428815795820646e-004	9.762130e+000	4.871753e+000	3.009321e+000
1.448347045820646e-004	9.185322e+000	4.584784e+000	3.009321e+000
1.467878295820646e-004	8.588223e+000	4.287720e+000	3.009321e+000
1.477643920820646e-004	8.284868e+000	4.136797e+000	3.009321e+000
1.487409545820646e-004	7.979831e+000	3.985037e+000	3.009321e+000
1.506940795820646e-004	7.369309e+000	3.681295e+000	3.009321e+000
1.526472045820646e-004	6.765857e+000	3.381070e+000	3.009321e+000
1.536237670820646e-004	6.469630e+000	3.233693e+000	3.009321e+000
1.546003295820646e-004	6.178564e+000	3.088805e+000	2.993481e+000
1.555768920820646e-004	5.893756e+000	2.946779e+000	2.927083e+000
1.565534545820646e-004	5.616278e+000	2.808139e+000	2.808139e+000
1.585065795820646e-004	5.087468e+000	2.543734e+000	2.543734e+000
1.604597045820646e-004	4.600100e+000	2.300050e+000	2.300050e+000
1.624128295820646e-004	4.161520e+000	2.080760e+000	2.080760e+000
1.643659545820646e-004	3.778341e+000	1.889170e+000	1.889170e+000
1.663190795820646e-004	3.456338e+000	1.728169e+000	1.728169e+000
1.672956420820646e-004	3.319835e+000	1.659917e+000	1.659917e+000
1.682722045820646e-004	3.200371e+000	1.600185e+000	1.600185e+000
1.692487670820646e-004	3.098398e+000	1.549199e+000	1.549199e+000
1.702253295820646e-004	3.014303e+000	1.507151e+000	1.507151e+000
1.712018920820646e-004	2.948402e+000	1.474201e+000	1.474201e+000
1.721784545820646e-004	2.900947e+000	1.450473e+000	1.450474e+000
1.731550170820646e-004	2.872117e+000	1.436058e+000	1.436058e+000
1.741315795820646e-004	2.862022e+000	1.431011e+000	1.431011e+000
1.751081420820646e-004	2.870703e+000	1.435352e+000	1.435352e+000
1.760847045820646e-004	2.898129e+000	1.449064e+000	1.449064e+000
1.770612670820646e-004	2.944197e+000	1.472098e+000	1.472098e+000
1.780378295820646e-004	3.008737e+000	1.504368e+000	1.504368e+000
1.790143920820646e-004	3.091506e+000	1.545753e+000	1.545753e+000
1.799909545820646e-004	3.192197e+000	1.596098e+000	1.596098e+000
1.809675170820646e-004	3.310430e+000	1.655215e+000	1.655215e+000
1.829206420820646e-004	3.597688e+000	1.798844e+000	1.798844e+000
1.848737670820646e-004	3.948975e+000	1.974487e+000	1.974487e+000
1.868268920820646e-004	4.359019e+000	2.179510e+000	2.179510e+000
1.887800170820646e-004	4.821668e+000	2.410834e+000	2.410834e+000
1.907331420820646e-004	5.329974e+000	2.664987e+000	2.664987e+000
1.917097045820646e-004	5.598888e+000	2.799444e+000	2.799444e+000
1.926862670820646e-004	5.876308e+000	2.938066e+000	2.920536e+000
1.936628295820646e-004	6.161190e+000	3.080150e+000	2.991296e+000
1.946393920820646e-004	6.452462e+000	3.225152e+000	3.009321e+000
1.956159545820646e-004	6.749031e+000	3.372698e+000	3.009321e+000
1.975690795820646e-004	7.353581e+000	3.673470e+000	3.009321e+000
1.995222045820646e-004	7.965761e+000	3.978037e+000	3.009321e+000
2.004987670820646e-004	8.271839e+000	4.130315e+000	3.009321e+000
2.024518920820646e-004	8.878224e+000	4.431999e+000	3.009321e+000
2.044050170820646e-004	9.469338e+000	4.726085e+000	3.009321e+000
2.063581420820646e-004	1.003630e+001	5.008157e+000	3.009321e+000
2.073347045820646e-004	1.030805e+001	5.143355e+000	3.009321e+000
2.083112670820646e-004	1.057060e+001	5.273978e+000	3.009321e+000
2.092878295820646e-004	1.082297e+001	5.399536e+000	3.009321e+000
2.102643920820646e-004	1.106421e+001	5.519556e+000	3.009321e+000
2.112409545820646e-004	1.129342e+001	5.633588e+000	3.009321e+000
2.122175170820646e-004	1.150972e+001	5.741202e+000	3.009321e+000
2.131940795820646e-004	1.171232e+001	5.841997e+000	3.009321e+000
2.141706420820647e-004	1.190044e+001	5.935591e+000	3.009321e+000
2.151472045820647e-004	1.207339e+001	6.021635e+000	3.009321e+000
2.161237670820647e-004	1.223051e+001	6.099803e+000	3.009321e+000
2.171003295820647e-004	1.237121e+001	6.169805e+000	3.009321e+000
2.180768920820647e-004	1.249497e+001	6.231376e+000	3.009321e+000
2.190534545820647e-004	1.260132e+001	6.284285e+000	3.009321e+000
2.200300170820647e-004	1.268986e+001	6.328335e+000	3.009321e+000
2.210065795820647e-004	1.276026e+001	6.363359e+000	3.009321e+000
2.219831420820647e-004	1.281226e+001	6.389228e+000	3.009321e+000
2.229597045820647e-004	1.284566e+001	6.405845e+000	3.009321e+000
2.239362670820647e-004	1.286033e+001	6.413146e+000	3.009321e+000
2.249128295820647e-004	1.285623e+001	6.411107e+000	3.009321e+000
2.258893920820647e-004	1.283337e+001	6.399735e+000	3.009321e+000
2.268659545820647e-004	1.279185e+001	6.379074e+000	3.009321e+000
2.278425170820647e-004	1.273180e+001	6.349202e+000	3.009321e+000
2.288190795820647e-004	1.265347e+001	6.310233e+000	3.009321e+000
2.297956420820647e-004	1.255716e+001	6.262313e+000	3.009321e+000
2.307722045820647e-004	1.244321e+001	6.205624e+000	3.009321e+000
2.317487670820647e-004	1.231207e+001	6.140380e+000	3.009321e+000
2.327253295820647e-004	1.216423e+001	6.066828e+000	3.009321e+000
2.337018920820647e-004	1.200025e+001	5.985244e+000	3.009321e+000
2.346784545820647e-004	1.182074e+001	5.895937e+000	3.009321e+000
2.356550170820647e-004	1.162639e+001	5.799243e+000	3.009321e+000
2.366315795820647e-004	1.141792e+001	5.695527e+000	3.009321e+000
2.376081420820647e-004	1.119612e+001	5.585181e+000	3.009321e+000
2.385847045820647e-004	1.096183e+001	5.468619e+000	3.009321e+000
2.395612670820647e-004	1.071593e+001	5.346282e+000	3.009321e+000
2.405378295820647e-004	1.045936e+001	5.218631e+000	3.009321e+000
2.424909545820647e-004	9.918057e+000	4.949328e+000	3.009321e+000
2.444440795820647e-004	9.346089e+000	4.664768e+000	3.009321e+000
2.463972045820647e-004	8.752067e+000	4.369234e+000	3.009321e+000
2.483503295820647e-004	8.144934e+000	4.067178e+000	3.009321e+000
2.503034545820647e-004	7.533834e+000	3.763148e+000	3.009321e+000
2.522565795820647e-004	6.927969e+000	3.461722e+000	3.009321e+000
2.532331420820647e-004	6.629858e+000	3.313408e+000	3.009321e+000
2.542097045820647e-004	6.336463e+000	3.167441e+000	3.009321e+000
2.551862670820647e-004	6.048890e+000	3.024213e+000	2.977769e+000
2.561628295820647e-004	5.768222e+000	2.884094e+000	2.880546e+000
2.571393920820647e-004	5.495517e+000	2.747758e+000	2.747758e+000
2.590925170820647e-004	4.978069e+000	2.489034e+000	2.489034e+000
2.610456420820647e-004	4.504340e+000	2.252170e+000	2.252170e+000
2.629987670820647e-004	4.081466e+000	2.040733e+000	2.040733e+000
2.649518920820647e-004	3.715818e+000	1.857909e+000	1.857909e+000
2.669050170820647e-004	3.412907e+000	1.706453e+000	1.706454e+000
2.678815795820647e-004	3.286443e+000	1.643222e+000	1.643222e+000
2.688581420820647e-004	3.177299e+000	1.588649e+000	1.588650e+000
2.698347045820647e-004	3.085885e+000	1.542943e+000	1.542943e+000
2.708112670820647e-004	3.012548e+000	1.506274e+000	1.506274e+000
2.717878295820647e-004	2.957565e+000	1.478782e+000	1.478782e+000
2.727643920820647e-004	2.921143e+000	1.460572e+000	1.460572e+000
2.737409545820647e-004	2.903422e+000	1.451711e+000	1.451711e+000
2.747175170820647e-004	2.904469e+000	1.452235e+000	1.452235e+000
2.756940795820647e-004	2.924282e+000	1.462141e+000	1.462141e+000
2.766706420820647e-004	2.962787e+000	1.481394e+000	1.481394e+000
2.776472045820647e-004	3.019841e+000	1.509921e+000	1.509921e+000
2.786237670820647e-004	3.095231e+000	1.547616e+000	1.547616e+000
2.796003295820647e-004	3.188673e+000	1.594337e+000	1.594337e+000
2.805768920820647e-004	3.299818e+000	1.649909e+000	1.649909e+000
2.825300170820647e-004	3.573481e+000	1.786741e+000	1.786741e+000
2.844831420820647e-004	3.912114e+000	1.956057e+000	1.956057e+000
2.864362670820647e-004	4.310635e+000	2.155317e+000	2.155317e+000
2.883893920820647e-004	4.763057e+000	2.381529e+000	2.381529e+000
2.903425170820647e-004	5.262588e+000	2.631294e+000	2.631294e+000
2.913190795820647e-004	5.527699e+000	2.763849e+000	2.763849e+000
2.922956420820647e-004	5.801723e+000	2.900822e+000	2.892951e+000
2.932722045820647e-004	6.083630e+000	3.041517e+000	2.981959e+000
2.942487670820647e-004	6.372360e+000	3.185300e+000	3.009321e+000
2.952253295820647e-004	6.666827e+000	3.331801e+000	3.009321e+000
2.971784545820647e-004	7.268526e+000	3.631154e+000	3.009321e+000
2.991315795820647e-004	7.879685e+000	3.935213e+000	3.009321e+000
3.001081420820647e-004	8.185945e+000	4.087581e+000	3.009321e+000
3.020612670820647e-004	8.794069e+000	4.390131e+000	3.009321e+000
3.040143920820647e-004	9.388732e+000	4.685983e+000	3.009321e+000
3.059675170820647e-004	9.960998e+000	4.970692e+000	3.009321e+000
3.079206420820647e-004	1.050227e+001	5.239980e+000	3.009321e+000
3.088972045820647e-004	1.075872e+001	5.367567e+000	3.009321e+000
3.098737670820647e-004	1.100441e+001	5.489802e+000	3.009321e+000
3.108503295820647e-004	1.123842e+001	5.606227e+000	3.009321e+000
3.118268920820647e-004	1.145988e+001	5.716404e+000	3.009321e+000
3.128034545820647e-004	1.166794e+001	5.819920e+000	3.009321e+000
3.137800170820647e-004	1.186184e+001	5.916383e+000	3.009321e+000
3.147565795820647e-004	1.204083e+001	6.005433e+000	3.009321e+000
3.157331420820647e-004	1.220424e+001	6.086735e+000	3.009321e+000
3.167097045820647e-004	1.235147e+001	6.159983e+000	3.009321e+000
3.176862670820647e-004	1.248196e+001	6.224902e+000	3.009321e+000
3.186628295820647e-004	1.259522e+001	6.281248e+000	3.009321e+000
3.196393920820647e-004	1.269082e+001	6.328810e+000	3.009321e+000
3.206159545820647e-004	1.276840e+001	6.367410e+000	3.009321e+000
3.215925170820647e-004	1.282768e+001	6.396901e+000	3.009321e+000
3.225690795820647e-004	1.286843e+001	6.417175e+000	3.009321e+000
3.235456420820647e-004	1.289050e+001	6.428155e+000	3.009321e+000
3.245222045820647e-004	1.289381e+001	6.429801e+000	3.009321e+000
3.254987670820647e-004	1.287834e+001	6.422107e+000	3.009321e+000
3.264753295820647e-004	1.284416e+001	6.405102e+000	3.009321e+000
3.274518920820647e-004	1.279140e+001	6.378851e+000	3.009321e+000
3.284284545820647e-004	1.272025e+001	6.343452e+000	3.009321e+000
3.294050170820647e-004	1.263098e+001	6.299042e+000	3.009321e+000
3.303815795820647e-004	1.252394e+001	6.245785e+000	3.009321e+000
3.313581420820647e-004	1.239951e+001	6.183884e+000	3.009321e+000
3.323347045820647e-004	1.225819e+001	6.113573e+000	3.009321e+000
3.333112670820647e-004	1.210049e+001	6.035115e+000	3.009321e+000
3.342878295820647e-004	1.192701e+001	5.948808e+000	3.009321e+000
3.352643920820647e-004	1.173841e+001	5.854976e+000	3.009321e+000
3.362409545820647e-004	1.153539e+001	5.753973e+000	3.009321e+000
3.372175170820647e-004	1.131873e+001	5.646180e+000	3.009321e+000
3.381940795820647e-004	1.108923e+001	5.532002e+000	3.009321e+000
3.391706420820647e-004	1.084777e+001	5.411872e+000	3.009321e+000
3.401472045820647e-004	1.059525e+001	5.286240e+000	3.009321e+000
3.411237670820647e-004	1.033262e+001	5.155580e+000	3.009321e+000
3.430768920820647e-004	9.781045e+000	4.881164e+000	3.009321e+000
3.450300170820647e-004	9.201342e+000	4.592753e+000	3.009321e+000
3.469831420820647e-004	8.602238e+000	4.294692e+000	3.009321e+000
3.489362670820647e-004	7.992755e+000	3.991467e+000	3.009321e+000
3.508893920820647e-004	7.382066e+000	3.687641e+000	3.009321e+000
3.528425170820647e-004	6.779366e+000	3.387790e+000	3.009321e+000
3.538190795820647e-004	6.483854e+000	3.240770e+000	3.009321e+000
3.547956420820647e-004	6.193726e+000	3.096359e+000	2.995514e+000
3.557722045820647e-004	5.910072e+000	2.954928e+000	2.933353e+000
3.567487670820647e-004	5.633962e+000	2.816981e+000	2.816981e+000
3.587018920820648e-004	5.108498e+000	2.554249e+000	2.554249e+000
3.606550170820648e-004	4.625244e+000	2.312622e+000	2.312622e+000
