Freq.	V(in)	V(out)
3.20000000000000e+001	(0.00000000000000e+000dB,0.00000000000000e+000°)	(2.18041496842811e+001dB,1.78287600724572e+002°)
4.02856131774134e+001	(0.00000000000000e+000dB,0.00000000000000e+000°)	(2.18018824838841e+001dB,1.77844592158447e+002°)
5.07165821587556e+001	(0.00000000000000e+000dB,0.00000000000000e+000°)	(2.17982916360728e+001dB,1.77287250155556e+002°)
6.38483940790042e+001	(0.00000000000000e+000dB,0.00000000000000e+000°)	(2.17926066005036e+001dB,1.76586340550659e+002°)
8.03803658083066e+001	(0.00000000000000e+000dB,0.00000000000000e+000°)	(2.17836116425018e+001dB,1.75705424816899e+002°)
1.01192885125388e+002	(0.00000000000000e+000dB,0.00000000000000e+000°)	(2.17693936468892e+001dB,1.74599352034430e+002°)
1.27394294577119e+002	(0.00000000000000e+000dB,0.00000000000000e+000°)	(2.17469545573051e+001dB,1.73212703279586e+002°)
1.60379914760727e+002	(0.00000000000000e+000dB,0.00000000000000e+000°)	(2.17116267912970e+001dB,1.71478490640559e+002°)
2.01906350233662e+002	(0.00000000000000e+000dB,0.00000000000000e+000°)	(2.16562181365888e+001dB,1.69317749981642e+002°)
2.54185035111770e+002	(0.00000000000000e+000dB,0.00000000000000e+000°)	(2.15698242005472e+001dB,1.66641243496990e+002°)
3.20000000000000e+002	(0.00000000000000e+000dB,0.00000000000000e+000°)	(2.14363249997814e+001dB,1.63355338589051e+002°)
4.02856131774134e+002	(0.00000000000000e+000dB,0.00000000000000e+000°)	(2.12328059286889e+001dB,1.59375024972903e+002°)
5.07165821587557e+002	(0.00000000000000e+000dB,0.00000000000000e+000°)	(2.09285985500034e+001dB,1.54647022988445e+002°)
6.38483940790042e+002	(0.00000000000000e+000dB,0.00000000000000e+000°)	(2.04862709110017e+001dB,1.49182889922246e+002°)
8.03803658083066e+002	(0.00000000000000e+000dB,0.00000000000000e+000°)	(1.98661977839153e+001dB,1.43093577084059e+002°)
1.01192885125388e+003	(0.00000000000000e+000dB,0.00000000000000e+000°)	(1.90352069834918e+001dB,1.36605170653413e+002°)
1.27394294577119e+003	(0.00000000000000e+000dB,0.00000000000000e+000°)	(1.79766665188040e+001dB,1.30033059131301e+002°)
1.60379914760727e+003	(0.00000000000000e+000dB,0.00000000000000e+000°)	(1.66964771162728e+001dB,1.23712909510516e+002°)
2.01906350233662e+003	(0.00000000000000e+000dB,0.00000000000000e+000°)	(1.52208762285307e+001dB,1.17920686672676e+002°)
2.54185035111770e+003	(0.00000000000000e+000dB,0.00000000000000e+000°)	(1.35876122645364e+001dB,1.12823719145017e+002°)
3.20000000000000e+003	(0.00000000000000e+000dB,0.00000000000000e+000°)	(1.18360292786825e+001dB,1.08478268735344e+002°)
4.02856131774134e+003	(0.00000000000000e+000dB,0.00000000000000e+000°)	(1.00004116636275e+001dB,1.04858003847343e+002°)
5.07165821587557e+003	(0.00000000000000e+000dB,0.00000000000000e+000°)	(8.10742595510009e+000dB,1.01889612518391e+002°)
6.38483940790042e+003	(0.00000000000000e+000dB,0.00000000000000e+000°)	(6.17633060181863e+000dB,9.94811784773331e+001°)
8.03803658083067e+003	(0.00000000000000e+000dB,0.00000000000000e+000°)	(4.22037692711054e+000dB,9.75398296892804e+001°)
1.01192885125388e+004	(0.00000000000000e+000dB,0.00000000000000e+000°)	(2.24840168019317e+000dB,9.59806757620201e+001°)
1.27394294577119e+004	(0.00000000000000e+000dB,0.00000000000000e+000°)	(2.66180436098846e-001dB,9.47302064297544e+001°)
1.60379914760727e+004	(0.00000000000000e+000dB,0.00000000000000e+000°)	(-1.72255986935152e+000dB,9.37266831679248e+001°)
2.01906350233662e+004	(0.00000000000000e+000dB,0.00000000000000e+000°)	(-3.71543329874654e+000dB,9.29191236520055e+001°)
2.54185035111771e+004	(0.00000000000000e+000dB,0.00000000000000e+000°)	(-5.71091939407941e+000dB,9.22657631824538e+001°)
3.20000000000001e+004	(0.00000000000000e+000dB,0.00000000000000e+000°)	(-7.70805094737398e+000dB,9.17324323482630e+001°)
4.02856131774134e+004	(0.00000000000000e+000dB,0.00000000000000e+000°)	(-9.70621164483333e+000dB,9.12910428432611e+001°)
5.07165821587557e+004	(0.00000000000000e+000dB,0.00000000000000e+000°)	(-1.17050056053548e+001dB,9.09182458611800e+001°)
6.38483940790043e+004	(0.00000000000000e+000dB,0.00000000000000e+000°)	(-1.37041729566830e+001dB,9.05942660701973e+001°)
8.03803658083067e+004	(0.00000000000000e+000dB,0.00000000000000e+000°)	(-1.57035341521592e+001dB,9.03018868179001e+001°)
1.01192885125388e+005	(0.00000000000000e+000dB,0.00000000000000e+000°)	(-1.77029513799380e+001dB,9.00255513325158e+001°)
1.27394294577119e+005	(0.00000000000000e+000dB,0.00000000000000e+000°)	(-1.97022988839174e+001dB,8.97505409491823e+001°)
1.60379914760727e+005	(0.00000000000000e+000dB,0.00000000000000e+000°)	(-2.17014358516067e+001dB,8.94621898923140e+001°)
2.01906350233662e+005	(0.00000000000000e+000dB,0.00000000000000e+000°)	(-2.37001760462295e+001dB,8.91450940929700e+001°)
2.54185035111771e+005	(0.00000000000000e+000dB,0.00000000000000e+000°)	(-2.56982476524189e+001dB,8.87822668344661e+001°)
3.20000000000001e+005	(0.00000000000000e+000dB,0.00000000000000e+000°)	(-2.76952347096176e+001dB,8.83541842697981e+001°)
4.02856131774135e+005	(0.00000000000000e+000dB,0.00000000000000e+000°)	(-2.96904875889823e+001dB,8.78376450282191e+001°)
5.07165821587558e+005	(0.00000000000000e+000dB,0.00000000000000e+000°)	(-3.16829834366780e+001dB,8.72043325958650e+001°)
6.38483940790043e+005	(0.00000000000000e+000dB,0.00000000000000e+000°)	(-3.36711070978190e+001dB,8.64189016889670e+001°)
8.03803658083068e+005	(0.00000000000000e+000dB,0.00000000000000e+000°)	(-3.56523069138355e+001dB,8.54362792775877e+001°)
1.01192885125388e+006	(0.00000000000000e+000dB,0.00000000000000e+000°)	(-3.76225556383988e+001dB,8.41976119673198e+001°)
1.27394294577120e+006	(0.00000000000000e+000dB,0.00000000000000e+000°)	(-3.95755128248857e+001dB,8.26237632116965e+001°)
1.60379914760728e+006	(0.00000000000000e+000dB,0.00000000000000e+000°)	(-4.15012452247168e+001dB,8.06041508807677e+001°)
2.00000000000000e+006	(0.00000000000000e+000dB,0.00000000000000e+000°)	(-4.33078734813119e+001dB,7.80994132947942e+001°)
